
T1740 000:036 SEGGER J-Link V5.12f Log File (0000ms, 0027ms total)
T1740 000:036 DLL Compiled: May 17 2016 16:03:35 (0000ms, 0027ms total)
T1740 000:036 Logging started @ 2018-04-02 16:16 (0000ms, 0027ms total)
T1740 000:036 JLINK_SetWarnOutHandler(...) (0000ms, 0027ms total)
T1740 000:036 JLINK_OpenEx(...)
Firmware: J-Link ARM-OB STM32 compiled Aug 22 2012 19:52:04
Hardware: V7.00
S/N: 20090928
Feature(s): RDI,FlashDL,FlashBP,JFlash,GDBFull  returns O.K. (0019ms, 0046ms total)
T1740 000:055 JLINK_SetErrorOutHandler(...) (0000ms, 0046ms total)
T1740 000:055 JLINK_ExecCommand("ProjectFile = "E:\GitHub\IKY-BANG-LED\Firmware\main\Projects\IKY-Countdown-20180326 - P10 - RBG\JLinkSettings.ini"", ...)  returns 0x00 (0000ms, 0046ms total)
T1740 000:060 JLINK_ExecCommand("Device = STM32F103C8", ...)Device "STM32F103C8" selected.  returns 0x00 (0005ms, 0051ms total)
T1740 000:065 JLINK_ExecCommand("DisableConnectionTimeout", ...)  returns 0x01 (0000ms, 0051ms total)
T1740 000:065 JLINK_GetHardwareVersion()  returns 0x11170 (0000ms, 0051ms total)
T1740 000:065 JLINK_GetDLLVersion()  returns 51206 (0000ms, 0051ms total)
T1740 000:065 JLINK_GetFirmwareString(...) (0000ms, 0051ms total)
T1740 000:084 JLINK_GetDLLVersion()  returns 51206 (0000ms, 0051ms total)
T1740 000:084 JLINK_GetCompileDateTime() (0000ms, 0051ms total)
T1740 000:090 JLINK_GetFirmwareString(...) (0000ms, 0051ms total)
T1740 000:096 JLINK_GetHardwareVersion()  returns 0x11170 (0000ms, 0051ms total)
T1740 000:120 JLINK_TIF_Select(JLINKARM_TIF_SWD)  returns 0x00 (0004ms, 0055ms total)
T1740 000:124 JLINK_SetSpeed(5000) (0001ms, 0056ms total)
T1740 000:126 JLINK_GetId() >0x108 TIF>Found SWD-DP with ID 0x1BA01477 >0x0D TIF> >0x28 TIF> >0x0D TIF> >0x28 TIF> >0x0D TIF> >0x28 TIF> >0x0D TIF> >0x28 TIF> >0x0D TIF> >0x21 TIF> >0x0D TIF> >0x28 TIF> >0x0D TIF> >0x28 TIF> >0x0D TIF> >0x28 TIF> >0x0D TIF> >0x21 TIF> >0x0D TIF> >0x21 TIF> >0x0D TIF> >0x28 TIF> >0x0D TIF> >0x21 TIF> >0x0D TIF> >0x21 TIF> >0x0D TIF> >0x28 TIF> >0x0D TIF> >0x21 TIF> >0x0D TIF> >0x21 TIF> >0x0D TIF> >0x28 TIF> >0x0D TIF> >0x21 TIF> >0x0D TIF> >0x21 TIF> >0x0D TIF>
 >0x28 TIF> >0x0D TIF> >0x21 TIF> >0x0D TIF> >0x21 TIF> >0x0D TIF> >0x28 TIF> >0x0D TIF> >0x21 TIF> >0x0D TIF> >0x21 TIF> >0x108 TIF>Found SWD-DP with ID 0x1BA01477 >0x0D TIF> >0x28 TIF> >0x0D TIF> >0x28 TIF> >0x0D TIF> >0x28 TIF> >0x0D TIF> >0x28 TIF> >0x0D TIF> >0x21 TIF> >0x0D TIF> >0x28 TIF> >0x0D TIF> >0x28 TIF> >0x0D TIF> >0x21 TIF> >0x0D TIF> >0x21 TIF> >0x0D TIF> >0x21 TIF> >0x0D TIF> >0x28 TIF> >0x0D TIF> >0x28 TIF> >0x0D TIF> >0x28 TIF> >0x0D TIF> >0x21 TIF> >0x0D TIF> >0x21 TIF> >0x0D TIF>
 >0x28 TIF> >0x0D TIF> >0x21 TIF> >0x0D TIF> >0x21 TIF>Found Cortex-M3 r1p1, Little endian. -- CPU_ReadMem(4 bytes @ 0xE000EDF0) -- CPU_ReadMem(4 bytes @ 0xE0002000)FPUnit: 6 code (BP) slots and 2 literal slots -- CPU_ReadMem(4 bytes @ 0xE000EDFC) -- CPU_ReadMem(4 bytes @ 0xE0001000) -- CPU_WriteMem(4 bytes @ 0xE0001000) -- CPU_ReadMem(4 bytes @ 0xE000ED88) -- CPU_WriteMem(4 bytes @ 0xE000ED88) -- CPU_ReadMem(4 bytes @ 0xE000ED88) -- CPU_WriteMem(4 bytes @ 0xE000ED88)CoreSight components:
ROMTbl 0 @ E00FF000 -- CPU_ReadMem(16 bytes @ 0xE00FF000) -- CPU_ReadMem(16 bytes @ 0xE000EFF0) -- CPU_ReadMem(16 bytes @ 0xE000EFE0)ROMTbl 0 [0]: FFF0F000, CID: B105E00D, PID: 001BB000 SCS -- CPU_ReadMem(16 bytes @ 0xE0001FF0) -- CPU_ReadMem(16 bytes @ 0xE0001FE0)ROMTbl 0 [1]: FFF02000, CID: B105E00D, PID: 001BB002 DWT -- CPU_ReadMem(16 bytes @ 0xE0002FF0) -- CPU_ReadMem(16 bytes @ 0xE0002FE0)ROMTbl 0 [2]: FFF03000, CID: B105E00D, PID: 000BB003 FPB -- CPU_ReadMem(16 bytes @ 0xE0000FF0)
 -- CPU_ReadMem(16 bytes @ 0xE0000FE0)ROMTbl 0 [3]: FFF01000, CID: B105E00D, PID: 001BB001 ITM -- CPU_ReadMem(16 bytes @ 0xE00FF010) -- CPU_ReadMem(16 bytes @ 0xE0040FF0) -- CPU_ReadMem(16 bytes @ 0xE0040FE0)ROMTbl 0 [4]: FFF41000, CID: B105900D, PID: 001BB923 TPIU-Lite >0x0D TIF> >0x21 TIF>  returns 0x1BA01477 (0172ms, 0228ms total)
T1740 000:298 JLINK_GetDLLVersion()  returns 51206 (0000ms, 0228ms total)
T1740 000:298 JLINK_CORE_GetFound()  returns 0x30000FF (0001ms, 0229ms total)
T1740 000:299 JLINK_GetDebugInfo(0x100) -- Value=0xE00FF000  returns 0x00 (0000ms, 0229ms total)
T1740 000:305 JLINK_GetDebugInfo(0x100) -- Value=0xE00FF000  returns 0x00 (0000ms, 0229ms total)
T1740 000:305 JLINK_GetDebugInfo(0x101) -- Value=0x00000000  returns 0x00 (0000ms, 0229ms total)
T1740 000:305 JLINK_ReadMem (0xE0041FF0, 0x0010 Bytes, ...) -- CPU is running -- CPU_ReadMem(16 bytes @ 0xE0041FF0) - Data: 00 00 00 00 00 00 00 00 00 00 00 00 00 00 00 00  returns 0x00 (0001ms, 0230ms total)
T1740 000:306 JLINK_GetDebugInfo(0x102) -- Value=0x00000000  returns 0x00 (0000ms, 0230ms total)
T1740 000:306 JLINK_GetDebugInfo(0x103) -- Value=0xE0040000  returns 0x00 (0000ms, 0230ms total)
T1740 000:306 JLINK_GetDebugInfo(0x104) -- Value=0xE0000000  returns 0x00 (0000ms, 0230ms total)
T1740 000:306 JLINK_GetDebugInfo(0x105) -- Value=0xE0001000  returns 0x00 (0000ms, 0230ms total)
T1740 000:306 JLINK_GetDebugInfo(0x106) -- Value=0xE0002000  returns 0x00 (0000ms, 0230ms total)
T1740 000:306 JLINK_GetDebugInfo(0x107) -- Value=0xE000E000  returns 0x00 (0000ms, 0230ms total)
T1740 000:306 JLINK_GetDebugInfo(0x10C) -- Value=0xE000EDF0  returns 0x00 (0000ms, 0230ms total)
T1740 000:306 JLINK_ReadMemU32(0xE000ED00, 0x0001 Items, ...) -- CPU is running -- CPU_ReadMem(4 bytes @ 0xE000ED00) - Data: 31 C2 1F 41  returns 0x01 (0001ms, 0231ms total)
T1740 000:307 JLINK_SetResetType(JLINKARM_RESET_TYPE_NORMAL)  returns JLINKARM_RESET_TYPE_NORMAL (0000ms, 0231ms total)
T1740 000:307 JLINK_Reset() -- CPU is running -- CPU_WriteMem(4 bytes @ 0xE000EDF0) -- CPU is running -- CPU_WriteMem(4 bytes @ 0xE000EDFC) >0x35 TIF> -- CPU is running -- CPU_WriteMem(4 bytes @ 0xE000ED0C) -- CPU is running -- CPU_ReadMem(4 bytes @ 0xE000EDF0) -- CPU is running -- CPU_ReadMem(4 bytes @ 0xE000EDF0) -- CPU is running -- CPU_WriteMem(4 bytes @ 0xE000EDF0) -- CPU is running -- CPU_WriteMem(4 bytes @ 0xE000EDFC) -- CPU is running -- CPU_ReadMem(4 bytes @ 0xE000EDF0)
 -- CPU_WriteMem(4 bytes @ 0xE0002000) -- CPU_ReadMem(4 bytes @ 0xE000EDFC) -- CPU_ReadMem(4 bytes @ 0xE0001000) (0023ms, 0254ms total)
T1740 000:331 JLINK_Halt()  returns 0x00 (0000ms, 0254ms total)
T1740 000:331 JLINK_IsHalted()  returns TRUE (0000ms, 0254ms total)
T1740 000:331 JLINK_ReadMemU32(0xE000EDF0, 0x0001 Items, ...) -- CPU_ReadMem(4 bytes @ 0xE000EDF0) - Data: 03 00 03 00  returns 0x01 (0002ms, 0256ms total)
T1740 000:333 JLINK_WriteU32(0xE000EDF0, 0xA05F0003) -- CPU_WriteMem(4 bytes @ 0xE000EDF0)  returns 0x00 (0001ms, 0257ms total)
T1740 000:334 JLINK_WriteU32(0xE000EDFC, 0x01000000) -- CPU_WriteMem(4 bytes @ 0xE000EDFC)  returns 0x00 (0001ms, 0258ms total)
T1740 000:356 JLINK_GetHWStatus(...)  returns 0x00 (0001ms, 0259ms total)
T1740 000:374 JLINK_GetNumBPUnits(Type = 0xFFFFFF00)  returns 0x06 (0000ms, 0259ms total)
T1740 000:374 JLINK_GetNumBPUnits(Type = 0xF0)  returns 0x2000 (0000ms, 0259ms total)
T1740 000:374 JLINK_GetNumWPUnits()  returns 0x04 (0000ms, 0259ms total)
T1740 000:391 JLINK_GetSpeed()  returns 0xFA0 (0000ms, 0259ms total)
T1740 000:401 JLINK_ReadMemU32(0xE000E004, 0x0001 Items, ...) -- CPU_ReadMem(4 bytes @ 0xE000E004) - Data: 01 00 00 00  returns 0x01 (0002ms, 0261ms total)
T1740 000:403 JLINK_ReadMemU32(0xE000E004, 0x0001 Items, ...) -- CPU_ReadMem(4 bytes @ 0xE000E004) - Data: 01 00 00 00  returns 0x01 (0001ms, 0262ms total)
T1740 000:404 JLINK_WriteMem(0xE0001000, 0x001C Bytes, ...) - Data: 01 00 00 00 00 00 00 00 00 00 00 00 00 00 00 00 ... -- CPU_WriteMem(28 bytes @ 0xE0001000)  returns 0x1C (0002ms, 0264ms total)
T1740 000:406 JLINK_ReadMem (0xE0001000, 0x001C Bytes, ...) -- CPU_ReadMem(28 bytes @ 0xE0001000) - Data: 01 00 00 40 00 00 00 00 00 00 00 00 00 00 00 00 ...  returns 0x00 (0001ms, 0265ms total)
T1740 000:407 JLINK_Halt()  returns 0x00 (0000ms, 0265ms total)
T1740 000:407 JLINK_IsHalted()  returns TRUE (0000ms, 0265ms total)
T1740 000:408 JLINK_WriteMem(0x20000000, 0x0164 Bytes, ...) - Data: 00 BE 0A E0 0D 78 2D 06 68 40 08 24 40 00 00 D3 ... -- CPU_WriteMem(356 bytes @ 0x20000000)  returns 0x164 (0005ms, 0270ms total)
T1740 000:413 JLINK_WriteReg(R0, 0x08000000)  returns 0x00 (0000ms, 0270ms total)
T1740 000:413 JLINK_WriteReg(R1, 0x00B71B00)  returns 0x00 (0000ms, 0270ms total)
T1740 000:413 JLINK_WriteReg(R2, 0x00000001)  returns 0x00 (0000ms, 0270ms total)
T1740 000:413 JLINK_WriteReg(R3, 0x00000000)  returns 0x00 (0000ms, 0270ms total)
T1740 000:413 JLINK_WriteReg(R4, 0x00000000)  returns 0x00 (0000ms, 0270ms total)
T1740 000:413 JLINK_WriteReg(R5, 0x00000000)  returns 0x00 (0000ms, 0270ms total)
T1740 000:413 JLINK_WriteReg(R6, 0x00000000)  returns 0x00 (0000ms, 0270ms total)
T1740 000:413 JLINK_WriteReg(R7, 0x00000000)  returns 0x00 (0000ms, 0270ms total)
T1740 000:413 JLINK_WriteReg(R8, 0x00000000)  returns 0x00 (0000ms, 0270ms total)
T1740 000:413 JLINK_WriteReg(R9, 0x20000160)  returns 0x00 (0000ms, 0270ms total)
T1740 000:413 JLINK_WriteReg(R10, 0x00000000)  returns 0x00 (0000ms, 0270ms total)
T1740 000:413 JLINK_WriteReg(R11, 0x00000000)  returns 0x00 (0000ms, 0270ms total)
T1740 000:413 JLINK_WriteReg(R12, 0x00000000)  returns 0x00 (0000ms, 0270ms total)
T1740 000:413 JLINK_WriteReg(R13 (SP), 0x20001000)  returns 0x00 (0000ms, 0270ms total)
T1740 000:413 JLINK_WriteReg(R14, 0x20000001)  returns 0x00 (0000ms, 0270ms total)
T1740 000:413 JLINK_WriteReg(R15 (PC), 0x20000038)  returns 0x00 (0000ms, 0270ms total)
T1740 000:413 JLINK_WriteReg(XPSR, 0x01000000)  returns 0x00 (0000ms, 0270ms total)
T1740 000:413 JLINK_WriteReg(MSP, 0x20001000)  returns 0x00 (0000ms, 0270ms total)
T1740 000:413 JLINK_WriteReg(PSP, 0x20001000)  returns 0x00 (0000ms, 0270ms total)
T1740 000:413 JLINK_WriteReg(CFBP, 0x00000000)  returns 0x00 (0000ms, 0270ms total)
T1740 000:413 JLINK_SetBPEx(Addr = 0x20000000, Type = 0xFFFFFFF2) -- CPU_ReadMem(2 bytes @ 0x20000000)  returns 0x00000001 (0005ms, 0275ms total)
T1740 000:418 JLINK_Go() -- CPU_WriteMem(2 bytes @ 0x20000000) -- CPU_ReadMem(4 bytes @ 0xE0001000) -- CPU_WriteMem(4 bytes @ 0xE0002008) -- CPU_WriteMem(4 bytes @ 0xE000200C) -- CPU_WriteMem(4 bytes @ 0xE0002010) -- CPU_WriteMem(4 bytes @ 0xE0002014) -- CPU_WriteMem(4 bytes @ 0xE0002018) -- CPU_WriteMem(4 bytes @ 0xE000201C) -- CPU_WriteMem(4 bytes @ 0xE0001004) (0012ms, 0287ms total)
T1740 000:430 JLINK_IsHalted() -- CPU_ReadMem(2 bytes @ 0x20000000)  returns TRUE (0006ms, 0293ms total)
T1740 000:436 JLINK_ReadReg(R15 (PC))  returns 0x20000000 (0000ms, 0287ms total)
T1740 000:436 JLINK_ClrBPEx(BPHandle = 0x00000001)  returns 0x00 (0000ms, 0287ms total)
T1740 000:437 JLINK_ReadReg(R0)  returns 0x00000000 (0000ms, 0287ms total)
T1740 000:437 JLINK_WriteReg(R0, 0x08000000)  returns 0x00 (0000ms, 0287ms total)
T1740 000:437 JLINK_WriteReg(R1, 0x00B71B00)  returns 0x00 (0000ms, 0287ms total)
T1740 000:437 JLINK_WriteReg(R2, 0x00000001)  returns 0x00 (0000ms, 0287ms total)
T1740 000:437 JLINK_WriteReg(R3, 0x00000000)  returns 0x00 (0000ms, 0287ms total)
T1740 000:437 JLINK_WriteReg(R4, 0x00000000)  returns 0x00 (0000ms, 0287ms total)
T1740 000:437 JLINK_WriteReg(R5, 0x00000000)  returns 0x00 (0000ms, 0287ms total)
T1740 000:437 JLINK_WriteReg(R6, 0x00000000)  returns 0x00 (0000ms, 0287ms total)
T1740 000:437 JLINK_WriteReg(R7, 0x00000000)  returns 0x00 (0000ms, 0287ms total)
T1740 000:437 JLINK_WriteReg(R8, 0x00000000)  returns 0x00 (0000ms, 0287ms total)
T1740 000:437 JLINK_WriteReg(R9, 0x20000160)  returns 0x00 (0000ms, 0287ms total)
T1740 000:437 JLINK_WriteReg(R10, 0x00000000)  returns 0x00 (0000ms, 0287ms total)
T1740 000:437 JLINK_WriteReg(R11, 0x00000000)  returns 0x00 (0000ms, 0287ms total)
T1740 000:437 JLINK_WriteReg(R12, 0x00000000)  returns 0x00 (0000ms, 0287ms total)
T1740 000:437 JLINK_WriteReg(R13 (SP), 0x20001000)  returns 0x00 (0000ms, 0287ms total)
T1740 000:437 JLINK_WriteReg(R14, 0x20000001)  returns 0x00 (0000ms, 0287ms total)
T1740 000:437 JLINK_WriteReg(R15 (PC), 0x2000007C)  returns 0x00 (0000ms, 0287ms total)
T1740 000:437 JLINK_WriteReg(XPSR, 0x01000000)  returns 0x00 (0000ms, 0287ms total)
T1740 000:437 JLINK_WriteReg(MSP, 0x20001000)  returns 0x00 (0000ms, 0287ms total)
T1740 000:437 JLINK_WriteReg(PSP, 0x20001000)  returns 0x00 (0000ms, 0287ms total)
T1740 000:437 JLINK_WriteReg(CFBP, 0x00000000)  returns 0x00 (0000ms, 0287ms total)
T1740 000:437 JLINK_SetBPEx(Addr = 0x20000000, Type = 0xFFFFFFF2)  returns 0x00000002 (0000ms, 0287ms total)
T1740 000:437 JLINK_Go() -- CPU_ReadMem(4 bytes @ 0xE0001000) (0002ms, 0289ms total)
T1740 000:439 JLINK_IsHalted()  returns FALSE (0001ms, 0290ms total)
T1740 000:469 JLINK_IsHalted() -- CPU_ReadMem(2 bytes @ 0x20000000)  returns TRUE (0004ms, 0293ms total)
T1740 000:473 JLINK_ReadReg(R15 (PC))  returns 0x20000000 (0000ms, 0289ms total)
T1740 000:473 JLINK_ClrBPEx(BPHandle = 0x00000002)  returns 0x00 (0000ms, 0289ms total)
T1740 000:473 JLINK_ReadReg(R0)  returns 0x00000000 (0000ms, 0289ms total)
T1740 000:524 JLINK_WriteReg(R0, 0x00000001)  returns 0x00 (0000ms, 0289ms total)
T1740 000:524 JLINK_WriteReg(R1, 0x00B71B00)  returns 0x00 (0000ms, 0289ms total)
T1740 000:524 JLINK_WriteReg(R2, 0x00000001)  returns 0x00 (0000ms, 0289ms total)
T1740 000:524 JLINK_WriteReg(R3, 0x00000000)  returns 0x00 (0000ms, 0289ms total)
T1740 000:524 JLINK_WriteReg(R4, 0x00000000)  returns 0x00 (0000ms, 0289ms total)
T1740 000:524 JLINK_WriteReg(R5, 0x00000000)  returns 0x00 (0000ms, 0289ms total)
T1740 000:524 JLINK_WriteReg(R6, 0x00000000)  returns 0x00 (0000ms, 0289ms total)
T1740 000:524 JLINK_WriteReg(R7, 0x00000000)  returns 0x00 (0000ms, 0289ms total)
T1740 000:524 JLINK_WriteReg(R8, 0x00000000)  returns 0x00 (0000ms, 0289ms total)
T1740 000:524 JLINK_WriteReg(R9, 0x20000160)  returns 0x00 (0000ms, 0289ms total)
T1740 000:524 JLINK_WriteReg(R10, 0x00000000)  returns 0x00 (0000ms, 0289ms total)
T1740 000:524 JLINK_WriteReg(R11, 0x00000000)  returns 0x00 (0000ms, 0289ms total)
T1740 000:524 JLINK_WriteReg(R12, 0x00000000)  returns 0x00 (0000ms, 0289ms total)
T1740 000:524 JLINK_WriteReg(R13 (SP), 0x20001000)  returns 0x00 (0000ms, 0289ms total)
T1740 000:524 JLINK_WriteReg(R14, 0x20000001)  returns 0x00 (0000ms, 0289ms total)
T1740 000:524 JLINK_WriteReg(R15 (PC), 0x2000006A)  returns 0x00 (0000ms, 0289ms total)
T1740 000:524 JLINK_WriteReg(XPSR, 0x01000000)  returns 0x00 (0000ms, 0289ms total)
T1740 000:524 JLINK_WriteReg(MSP, 0x20001000)  returns 0x00 (0000ms, 0289ms total)
T1740 000:524 JLINK_WriteReg(PSP, 0x20001000)  returns 0x00 (0000ms, 0289ms total)
T1740 000:524 JLINK_WriteReg(CFBP, 0x00000000)  returns 0x00 (0000ms, 0289ms total)
T1740 000:524 JLINK_SetBPEx(Addr = 0x20000000, Type = 0xFFFFFFF2)  returns 0x00000003 (0000ms, 0289ms total)
T1740 000:524 JLINK_Go() -- CPU_ReadMem(4 bytes @ 0xE0001000) (0004ms, 0293ms total)
T1740 000:528 JLINK_IsHalted() -- CPU_ReadMem(2 bytes @ 0x20000000)  returns TRUE (0005ms, 0298ms total)
T1740 000:533 JLINK_ReadReg(R15 (PC))  returns 0x20000000 (0000ms, 0293ms total)
T1740 000:533 JLINK_ClrBPEx(BPHandle = 0x00000003)  returns 0x00 (0000ms, 0293ms total)
T1740 000:533 JLINK_ReadReg(R0)  returns 0x00000000 (0000ms, 0293ms total)
T1740 000:537 JLINK_WriteMem(0x20000000, 0x0164 Bytes, ...) - Data: 00 BE 0A E0 0D 78 2D 06 68 40 08 24 40 00 00 D3 ... -- CPU_WriteMem(356 bytes @ 0x20000000)  returns 0x164 (0006ms, 0299ms total)
T1740 000:543 JLINK_WriteReg(R0, 0x08000000)  returns 0x00 (0000ms, 0299ms total)
T1740 000:543 JLINK_WriteReg(R1, 0x00B71B00)  returns 0x00 (0000ms, 0299ms total)
T1740 000:543 JLINK_WriteReg(R2, 0x00000002)  returns 0x00 (0000ms, 0299ms total)
T1740 000:543 JLINK_WriteReg(R3, 0x00000000)  returns 0x00 (0000ms, 0299ms total)
T1740 000:543 JLINK_WriteReg(R4, 0x00000000)  returns 0x00 (0000ms, 0299ms total)
T1740 000:543 JLINK_WriteReg(R5, 0x00000000)  returns 0x00 (0000ms, 0299ms total)
T1740 000:543 JLINK_WriteReg(R6, 0x00000000)  returns 0x00 (0000ms, 0299ms total)
T1740 000:543 JLINK_WriteReg(R7, 0x00000000)  returns 0x00 (0000ms, 0299ms total)
T1740 000:543 JLINK_WriteReg(R8, 0x00000000)  returns 0x00 (0000ms, 0299ms total)
T1740 000:543 JLINK_WriteReg(R9, 0x20000160)  returns 0x00 (0000ms, 0299ms total)
T1740 000:543 JLINK_WriteReg(R10, 0x00000000)  returns 0x00 (0000ms, 0299ms total)
T1740 000:543 JLINK_WriteReg(R11, 0x00000000)  returns 0x00 (0000ms, 0299ms total)
T1740 000:543 JLINK_WriteReg(R12, 0x00000000)  returns 0x00 (0000ms, 0299ms total)
T1740 000:543 JLINK_WriteReg(R13 (SP), 0x20001000)  returns 0x00 (0000ms, 0299ms total)
T1740 000:543 JLINK_WriteReg(R14, 0x20000001)  returns 0x00 (0000ms, 0299ms total)
T1740 000:543 JLINK_WriteReg(R15 (PC), 0x20000038)  returns 0x00 (0000ms, 0299ms total)
T1740 000:543 JLINK_WriteReg(XPSR, 0x01000000)  returns 0x00 (0000ms, 0299ms total)
T1740 000:543 JLINK_WriteReg(MSP, 0x20001000)  returns 0x00 (0000ms, 0299ms total)
T1740 000:543 JLINK_WriteReg(PSP, 0x20001000)  returns 0x00 (0000ms, 0299ms total)
T1740 000:543 JLINK_WriteReg(CFBP, 0x00000000)  returns 0x00 (0000ms, 0299ms total)
T1740 000:543 JLINK_SetBPEx(Addr = 0x20000000, Type = 0xFFFFFFF2) -- CPU_ReadMem(2 bytes @ 0x20000000)  returns 0x00000004 (0000ms, 0299ms total)
T1740 000:543 JLINK_Go() -- CPU_WriteMem(2 bytes @ 0x20000000) -- CPU_ReadMem(4 bytes @ 0xE0001000) (0005ms, 0304ms total)
T1740 000:548 JLINK_IsHalted() -- CPU_ReadMem(2 bytes @ 0x20000000)  returns TRUE (0006ms, 0310ms total)
T1740 000:554 JLINK_ReadReg(R15 (PC))  returns 0x20000000 (0000ms, 0304ms total)
T1740 000:554 JLINK_ClrBPEx(BPHandle = 0x00000004)  returns 0x00 (0000ms, 0304ms total)
T1740 000:554 JLINK_ReadReg(R0)  returns 0x00000000 (0000ms, 0304ms total)
T1740 000:555 JLINK_WriteMem(0x20000164, 0x0400 Bytes, ...) - Data: 10 14 00 20 E1 02 00 08 E9 02 00 08 85 08 00 08 ... -- CPU_WriteMem(1024 bytes @ 0x20000164)  returns 0x400 (0012ms, 0316ms total)
T1740 000:567 JLINK_WriteReg(R0, 0x08000000)  returns 0x00 (0000ms, 0316ms total)
T1740 000:567 JLINK_WriteReg(R1, 0x00000400)  returns 0x00 (0000ms, 0316ms total)
T1740 000:567 JLINK_WriteReg(R2, 0x20000164)  returns 0x00 (0000ms, 0316ms total)
T1740 000:567 JLINK_WriteReg(R3, 0x00000000)  returns 0x00 (0000ms, 0316ms total)
T1740 000:567 JLINK_WriteReg(R4, 0x00000000)  returns 0x00 (0000ms, 0316ms total)
T1740 000:567 JLINK_WriteReg(R5, 0x00000000)  returns 0x00 (0000ms, 0316ms total)
T1740 000:567 JLINK_WriteReg(R6, 0x00000000)  returns 0x00 (0000ms, 0316ms total)
T1740 000:567 JLINK_WriteReg(R7, 0x00000000)  returns 0x00 (0000ms, 0316ms total)
T1740 000:567 JLINK_WriteReg(R8, 0x00000000)  returns 0x00 (0000ms, 0316ms total)
T1740 000:567 JLINK_WriteReg(R9, 0x20000160)  returns 0x00 (0000ms, 0316ms total)
T1740 000:567 JLINK_WriteReg(R10, 0x00000000)  returns 0x00 (0000ms, 0316ms total)
T1740 000:567 JLINK_WriteReg(R11, 0x00000000)  returns 0x00 (0000ms, 0316ms total)
T1740 000:567 JLINK_WriteReg(R12, 0x00000000)  returns 0x00 (0000ms, 0316ms total)
T1740 000:567 JLINK_WriteReg(R13 (SP), 0x20001000)  returns 0x00 (0000ms, 0316ms total)
T1740 000:567 JLINK_WriteReg(R14, 0x20000001)  returns 0x00 (0000ms, 0316ms total)
T1740 000:567 JLINK_WriteReg(R15 (PC), 0x200000F4)  returns 0x00 (0000ms, 0316ms total)
T1740 000:567 JLINK_WriteReg(XPSR, 0x01000000)  returns 0x00 (0000ms, 0316ms total)
T1740 000:567 JLINK_WriteReg(MSP, 0x20001000)  returns 0x00 (0000ms, 0316ms total)
T1740 000:567 JLINK_WriteReg(PSP, 0x20001000)  returns 0x00 (0000ms, 0316ms total)
T1740 000:567 JLINK_WriteReg(CFBP, 0x00000000)  returns 0x00 (0000ms, 0316ms total)
T1740 000:567 JLINK_SetBPEx(Addr = 0x20000000, Type = 0xFFFFFFF2)  returns 0x00000005 (0000ms, 0316ms total)
T1740 000:567 JLINK_Go() -- CPU_ReadMem(4 bytes @ 0xE0001000) (0006ms, 0322ms total)
T1740 000:573 JLINK_IsHalted()  returns FALSE (0001ms, 0323ms total)
T1740 000:588 JLINK_IsHalted()  returns FALSE (0001ms, 0323ms total)
T1740 000:590 JLINK_IsHalted()  returns FALSE (0001ms, 0323ms total)
T1740 000:593 JLINK_IsHalted()  returns FALSE (0002ms, 0324ms total)
T1740 000:596 JLINK_IsHalted()  returns FALSE (0001ms, 0323ms total)
T1740 000:598 JLINK_IsHalted()  returns FALSE (0001ms, 0323ms total)
T1740 000:604 JLINK_IsHalted() -- CPU_ReadMem(2 bytes @ 0x20000000)  returns TRUE (0011ms, 0333ms total)
T1740 000:615 JLINK_ReadReg(R15 (PC))  returns 0x20000000 (0001ms, 0323ms total)
T1740 000:616 JLINK_ClrBPEx(BPHandle = 0x00000005)  returns 0x00 (0000ms, 0323ms total)
T1740 000:616 JLINK_ReadReg(R0)  returns 0x00000000 (0000ms, 0323ms total)
T1740 000:616 JLINK_WriteMem(0x20000164, 0x0400 Bytes, ...) - Data: 02 F0 C2 FA 02 F0 C3 FA 02 F0 C6 FA 10 BD 10 B5 ... -- CPU_WriteMem(1024 bytes @ 0x20000164)  returns 0x400 (0015ms, 0338ms total)
T1740 000:631 JLINK_WriteReg(R0, 0x08000400)  returns 0x00 (0000ms, 0338ms total)
T1740 000:631 JLINK_WriteReg(R1, 0x00000400)  returns 0x00 (0000ms, 0338ms total)
T1740 000:631 JLINK_WriteReg(R2, 0x20000164)  returns 0x00 (0000ms, 0338ms total)
T1740 000:631 JLINK_WriteReg(R3, 0x00000000)  returns 0x00 (0000ms, 0338ms total)
T1740 000:631 JLINK_WriteReg(R4, 0x00000000)  returns 0x00 (0000ms, 0338ms total)
T1740 000:631 JLINK_WriteReg(R5, 0x00000000)  returns 0x00 (0000ms, 0338ms total)
T1740 000:631 JLINK_WriteReg(R6, 0x00000000)  returns 0x00 (0000ms, 0338ms total)
T1740 000:631 JLINK_WriteReg(R7, 0x00000000)  returns 0x00 (0000ms, 0338ms total)
T1740 000:631 JLINK_WriteReg(R8, 0x00000000)  returns 0x00 (0000ms, 0338ms total)
T1740 000:631 JLINK_WriteReg(R9, 0x20000160)  returns 0x00 (0000ms, 0338ms total)
T1740 000:631 JLINK_WriteReg(R10, 0x00000000)  returns 0x00 (0000ms, 0338ms total)
T1740 000:631 JLINK_WriteReg(R11, 0x00000000)  returns 0x00 (0000ms, 0338ms total)
T1740 000:631 JLINK_WriteReg(R12, 0x00000000)  returns 0x00 (0000ms, 0338ms total)
T1740 000:631 JLINK_WriteReg(R13 (SP), 0x20001000)  returns 0x00 (0000ms, 0338ms total)
T1740 000:631 JLINK_WriteReg(R14, 0x20000001)  returns 0x00 (0000ms, 0338ms total)
T1740 000:631 JLINK_WriteReg(R15 (PC), 0x200000F4)  returns 0x00 (0000ms, 0338ms total)
T1740 000:631 JLINK_WriteReg(XPSR, 0x01000000)  returns 0x00 (0000ms, 0338ms total)
T1740 000:631 JLINK_WriteReg(MSP, 0x20001000)  returns 0x00 (0000ms, 0338ms total)
T1740 000:631 JLINK_WriteReg(PSP, 0x20001000)  returns 0x00 (0000ms, 0338ms total)
T1740 000:631 JLINK_WriteReg(CFBP, 0x00000000)  returns 0x00 (0000ms, 0338ms total)
T1740 000:631 JLINK_SetBPEx(Addr = 0x20000000, Type = 0xFFFFFFF2)  returns 0x00000006 (0000ms, 0338ms total)
T1740 000:631 JLINK_Go() -- CPU_ReadMem(4 bytes @ 0xE0001000) (0005ms, 0343ms total)
T1740 000:636 JLINK_IsHalted()  returns FALSE (0002ms, 0345ms total)
T1740 000:643 JLINK_IsHalted()  returns FALSE (0001ms, 0344ms total)
T1740 000:645 JLINK_IsHalted()  returns FALSE (0002ms, 0345ms total)
T1740 000:649 JLINK_IsHalted()  returns FALSE (0001ms, 0344ms total)
T1740 000:651 JLINK_IsHalted()  returns FALSE (0001ms, 0344ms total)
T1740 000:653 JLINK_IsHalted()  returns FALSE (0001ms, 0344ms total)
T1740 000:655 JLINK_IsHalted()  returns FALSE (0001ms, 0344ms total)
T1740 000:657 JLINK_IsHalted()  returns FALSE (0002ms, 0345ms total)
T1740 000:660 JLINK_IsHalted()  returns FALSE (0000ms, 0343ms total)
T1740 000:661 JLINK_IsHalted()  returns FALSE (0000ms, 0343ms total)
T1740 000:662 JLINK_IsHalted()  returns FALSE (0000ms, 0343ms total)
T1740 000:663 JLINK_IsHalted()  returns FALSE (0001ms, 0344ms total)
T1740 000:665 JLINK_IsHalted()  returns FALSE (0001ms, 0344ms total)
T1740 000:669 JLINK_IsHalted() -- CPU_ReadMem(2 bytes @ 0x20000000)  returns TRUE (0005ms, 0348ms total)
T1740 000:674 JLINK_ReadReg(R15 (PC))  returns 0x20000000 (0000ms, 0343ms total)
T1740 000:674 JLINK_ClrBPEx(BPHandle = 0x00000006)  returns 0x00 (0000ms, 0343ms total)
T1740 000:674 JLINK_ReadReg(R0)  returns 0x00000000 (0000ms, 0343ms total)
T1740 000:674 JLINK_WriteMem(0x20000164, 0x0400 Bytes, ...) - Data: BD E8 F0 81 10 B5 01 46 00 23 0C 46 00 BF 00 22 ... -- CPU_WriteMem(1024 bytes @ 0x20000164)  returns 0x400 (0014ms, 0357ms total)
T1740 000:688 JLINK_WriteReg(R0, 0x08000800)  returns 0x00 (0000ms, 0357ms total)
T1740 000:688 JLINK_WriteReg(R1, 0x00000400)  returns 0x00 (0000ms, 0357ms total)
T1740 000:688 JLINK_WriteReg(R2, 0x20000164)  returns 0x00 (0000ms, 0357ms total)
T1740 000:688 JLINK_WriteReg(R3, 0x00000000)  returns 0x00 (0000ms, 0357ms total)
T1740 000:688 JLINK_WriteReg(R4, 0x00000000)  returns 0x00 (0000ms, 0357ms total)
T1740 000:688 JLINK_WriteReg(R5, 0x00000000)  returns 0x00 (0000ms, 0357ms total)
T1740 000:688 JLINK_WriteReg(R6, 0x00000000)  returns 0x00 (0000ms, 0357ms total)
T1740 000:688 JLINK_WriteReg(R7, 0x00000000)  returns 0x00 (0000ms, 0357ms total)
T1740 000:688 JLINK_WriteReg(R8, 0x00000000)  returns 0x00 (0000ms, 0357ms total)
T1740 000:688 JLINK_WriteReg(R9, 0x20000160)  returns 0x00 (0000ms, 0357ms total)
T1740 000:688 JLINK_WriteReg(R10, 0x00000000)  returns 0x00 (0000ms, 0357ms total)
T1740 000:688 JLINK_WriteReg(R11, 0x00000000)  returns 0x00 (0000ms, 0357ms total)
T1740 000:688 JLINK_WriteReg(R12, 0x00000000)  returns 0x00 (0000ms, 0357ms total)
T1740 000:688 JLINK_WriteReg(R13 (SP), 0x20001000)  returns 0x00 (0000ms, 0357ms total)
T1740 000:688 JLINK_WriteReg(R14, 0x20000001)  returns 0x00 (0000ms, 0357ms total)
T1740 000:688 JLINK_WriteReg(R15 (PC), 0x200000F4)  returns 0x00 (0000ms, 0357ms total)
T1740 000:688 JLINK_WriteReg(XPSR, 0x01000000)  returns 0x00 (0000ms, 0357ms total)
T1740 000:688 JLINK_WriteReg(MSP, 0x20001000)  returns 0x00 (0000ms, 0357ms total)
T1740 000:688 JLINK_WriteReg(PSP, 0x20001000)  returns 0x00 (0000ms, 0357ms total)
T1740 000:688 JLINK_WriteReg(CFBP, 0x00000000)  returns 0x00 (0000ms, 0357ms total)
T1740 000:688 JLINK_SetBPEx(Addr = 0x20000000, Type = 0xFFFFFFF2)  returns 0x00000007 (0000ms, 0357ms total)
T1740 000:688 JLINK_Go() -- CPU_ReadMem(4 bytes @ 0xE0001000) (0009ms, 0366ms total)
T1740 000:697 JLINK_IsHalted()  returns FALSE (0001ms, 0367ms total)
T1740 000:700 JLINK_IsHalted()  returns FALSE (0001ms, 0367ms total)
T1740 000:702 JLINK_IsHalted()  returns FALSE (0002ms, 0368ms total)
T1740 000:705 JLINK_IsHalted()  returns FALSE (0001ms, 0367ms total)
T1740 000:707 JLINK_IsHalted()  returns FALSE (0001ms, 0367ms total)
T1740 000:709 JLINK_IsHalted()  returns FALSE (0000ms, 0366ms total)
T1740 000:710 JLINK_IsHalted()  returns FALSE (0000ms, 0366ms total)
T1740 000:711 JLINK_IsHalted()  returns FALSE (0000ms, 0366ms total)
T1740 000:712 JLINK_IsHalted()  returns FALSE (0000ms, 0366ms total)
T1740 000:716 JLINK_IsHalted()  returns FALSE (0001ms, 0367ms total)
T1740 000:718 JLINK_IsHalted()  returns FALSE (0000ms, 0366ms total)
T1740 000:719 JLINK_IsHalted()  returns FALSE (0001ms, 0367ms total)
T1740 000:721 JLINK_IsHalted()  returns FALSE (0001ms, 0367ms total)
T1740 000:723 JLINK_IsHalted()  returns FALSE (0001ms, 0367ms total)
T1740 000:725 JLINK_IsHalted() -- CPU_ReadMem(2 bytes @ 0x20000000)  returns TRUE (0006ms, 0372ms total)
T1740 000:731 JLINK_ReadReg(R15 (PC))  returns 0x20000000 (0000ms, 0366ms total)
T1740 000:731 JLINK_ClrBPEx(BPHandle = 0x00000007)  returns 0x00 (0000ms, 0366ms total)
T1740 000:731 JLINK_ReadReg(R0)  returns 0x00000000 (0001ms, 0367ms total)
T1740 000:732 JLINK_WriteMem(0x20000164, 0x0400 Bytes, ...) - Data: 40 F0 80 00 E4 49 08 61 70 47 04 20 E2 49 C9 68 ... -- CPU_WriteMem(1024 bytes @ 0x20000164)  returns 0x400 (0014ms, 0381ms total)
T1740 000:746 JLINK_WriteReg(R0, 0x08000C00)  returns 0x00 (0000ms, 0381ms total)
T1740 000:746 JLINK_WriteReg(R1, 0x00000400)  returns 0x00 (0000ms, 0381ms total)
T1740 000:746 JLINK_WriteReg(R2, 0x20000164)  returns 0x00 (0000ms, 0381ms total)
T1740 000:746 JLINK_WriteReg(R3, 0x00000000)  returns 0x00 (0000ms, 0381ms total)
T1740 000:746 JLINK_WriteReg(R4, 0x00000000)  returns 0x00 (0000ms, 0381ms total)
T1740 000:746 JLINK_WriteReg(R5, 0x00000000)  returns 0x00 (0000ms, 0381ms total)
T1740 000:746 JLINK_WriteReg(R6, 0x00000000)  returns 0x00 (0000ms, 0381ms total)
T1740 000:746 JLINK_WriteReg(R7, 0x00000000)  returns 0x00 (0000ms, 0381ms total)
T1740 000:746 JLINK_WriteReg(R8, 0x00000000)  returns 0x00 (0000ms, 0381ms total)
T1740 000:746 JLINK_WriteReg(R9, 0x20000160)  returns 0x00 (0000ms, 0381ms total)
T1740 000:746 JLINK_WriteReg(R10, 0x00000000)  returns 0x00 (0000ms, 0381ms total)
T1740 000:746 JLINK_WriteReg(R11, 0x00000000)  returns 0x00 (0000ms, 0381ms total)
T1740 000:746 JLINK_WriteReg(R12, 0x00000000)  returns 0x00 (0000ms, 0381ms total)
T1740 000:746 JLINK_WriteReg(R13 (SP), 0x20001000)  returns 0x00 (0000ms, 0381ms total)
T1740 000:746 JLINK_WriteReg(R14, 0x20000001)  returns 0x00 (0000ms, 0381ms total)
T1740 000:746 JLINK_WriteReg(R15 (PC), 0x200000F4)  returns 0x00 (0000ms, 0381ms total)
T1740 000:746 JLINK_WriteReg(XPSR, 0x01000000)  returns 0x00 (0000ms, 0381ms total)
T1740 000:746 JLINK_WriteReg(MSP, 0x20001000)  returns 0x00 (0000ms, 0381ms total)
T1740 000:746 JLINK_WriteReg(PSP, 0x20001000)  returns 0x00 (0000ms, 0381ms total)
T1740 000:746 JLINK_WriteReg(CFBP, 0x00000000)  returns 0x00 (0000ms, 0381ms total)
T1740 000:746 JLINK_SetBPEx(Addr = 0x20000000, Type = 0xFFFFFFF2)  returns 0x00000008 (0000ms, 0381ms total)
T1740 000:746 JLINK_Go() -- CPU_ReadMem(4 bytes @ 0xE0001000) (0006ms, 0387ms total)
T1740 000:752 JLINK_IsHalted()  returns FALSE (0001ms, 0388ms total)
T1740 000:756 JLINK_IsHalted()  returns FALSE (0001ms, 0388ms total)
T1740 000:758 JLINK_IsHalted()  returns FALSE (0003ms, 0390ms total)
T1740 000:763 JLINK_IsHalted()  returns FALSE (0002ms, 0389ms total)
T1740 000:766 JLINK_IsHalted()  returns FALSE (0001ms, 0388ms total)
T1740 000:768 JLINK_IsHalted()  returns FALSE (0001ms, 0388ms total)
T1740 000:770 JLINK_IsHalted()  returns FALSE (0000ms, 0387ms total)
T1740 000:771 JLINK_IsHalted()  returns FALSE (0001ms, 0388ms total)
T1740 000:776 JLINK_IsHalted()  returns FALSE (0001ms, 0388ms total)
T1740 000:778 JLINK_IsHalted()  returns FALSE (0001ms, 0388ms total)
T1740 000:780 JLINK_IsHalted()  returns FALSE (0001ms, 0388ms total)
T1740 000:782 JLINK_IsHalted()  returns FALSE (0001ms, 0388ms total)
T1740 000:784 JLINK_IsHalted() -- CPU_ReadMem(2 bytes @ 0x20000000)  returns TRUE (0005ms, 0392ms total)
T1740 000:789 JLINK_ReadReg(R15 (PC))  returns 0x20000000 (0000ms, 0387ms total)
T1740 000:789 JLINK_ClrBPEx(BPHandle = 0x00000008)  returns 0x00 (0000ms, 0387ms total)
T1740 000:789 JLINK_ReadReg(R0)  returns 0x00000000 (0000ms, 0387ms total)
T1740 000:789 JLINK_WriteMem(0x20000164, 0x0400 Bytes, ...) - Data: 08 46 00 69 40 F0 10 00 08 61 1D B1 00 20 50 49 ... -- CPU_WriteMem(1024 bytes @ 0x20000164)  returns 0x400 (0014ms, 0401ms total)
T1740 000:803 JLINK_WriteReg(R0, 0x08001000)  returns 0x00 (0000ms, 0401ms total)
T1740 000:803 JLINK_WriteReg(R1, 0x00000400)  returns 0x00 (0000ms, 0401ms total)
T1740 000:803 JLINK_WriteReg(R2, 0x20000164)  returns 0x00 (0000ms, 0401ms total)
T1740 000:803 JLINK_WriteReg(R3, 0x00000000)  returns 0x00 (0000ms, 0401ms total)
T1740 000:803 JLINK_WriteReg(R4, 0x00000000)  returns 0x00 (0000ms, 0401ms total)
T1740 000:803 JLINK_WriteReg(R5, 0x00000000)  returns 0x00 (0000ms, 0401ms total)
T1740 000:803 JLINK_WriteReg(R6, 0x00000000)  returns 0x00 (0000ms, 0401ms total)
T1740 000:803 JLINK_WriteReg(R7, 0x00000000)  returns 0x00 (0000ms, 0401ms total)
T1740 000:803 JLINK_WriteReg(R8, 0x00000000)  returns 0x00 (0000ms, 0401ms total)
T1740 000:803 JLINK_WriteReg(R9, 0x20000160)  returns 0x00 (0000ms, 0401ms total)
T1740 000:803 JLINK_WriteReg(R10, 0x00000000)  returns 0x00 (0000ms, 0401ms total)
T1740 000:803 JLINK_WriteReg(R11, 0x00000000)  returns 0x00 (0000ms, 0401ms total)
T1740 000:803 JLINK_WriteReg(R12, 0x00000000)  returns 0x00 (0000ms, 0401ms total)
T1740 000:803 JLINK_WriteReg(R13 (SP), 0x20001000)  returns 0x00 (0000ms, 0401ms total)
T1740 000:803 JLINK_WriteReg(R14, 0x20000001)  returns 0x00 (0000ms, 0401ms total)
T1740 000:803 JLINK_WriteReg(R15 (PC), 0x200000F4)  returns 0x00 (0000ms, 0401ms total)
T1740 000:803 JLINK_WriteReg(XPSR, 0x01000000)  returns 0x00 (0000ms, 0401ms total)
T1740 000:803 JLINK_WriteReg(MSP, 0x20001000)  returns 0x00 (0000ms, 0401ms total)
T1740 000:803 JLINK_WriteReg(PSP, 0x20001000)  returns 0x00 (0000ms, 0401ms total)
T1740 000:803 JLINK_WriteReg(CFBP, 0x00000000)  returns 0x00 (0000ms, 0401ms total)
T1740 000:803 JLINK_SetBPEx(Addr = 0x20000000, Type = 0xFFFFFFF2)  returns 0x00000009 (0000ms, 0401ms total)
T1740 000:803 JLINK_Go() -- CPU_ReadMem(4 bytes @ 0xE0001000) (0006ms, 0407ms total)
T1740 000:809 JLINK_IsHalted()  returns FALSE (0001ms, 0408ms total)
T1740 000:813 JLINK_IsHalted()  returns FALSE (0001ms, 0408ms total)
T1740 000:815 JLINK_IsHalted()  returns FALSE (0001ms, 0408ms total)
T1740 000:817 JLINK_IsHalted()  returns FALSE (0002ms, 0409ms total)
T1740 000:820 JLINK_IsHalted()  returns FALSE (0001ms, 0408ms total)
T1740 000:825 JLINK_IsHalted()  returns FALSE (0000ms, 0407ms total)
T1740 000:826 JLINK_IsHalted()  returns FALSE (0000ms, 0407ms total)
T1740 000:827 JLINK_IsHalted()  returns FALSE (0000ms, 0407ms total)
T1740 000:828 JLINK_IsHalted()  returns FALSE (0000ms, 0407ms total)
T1740 000:829 JLINK_IsHalted()  returns FALSE (0000ms, 0407ms total)
T1740 000:830 JLINK_IsHalted()  returns FALSE (0000ms, 0407ms total)
T1740 000:831 JLINK_IsHalted()  returns FALSE (0002ms, 0409ms total)
T1740 000:834 JLINK_IsHalted()  returns FALSE (0000ms, 0407ms total)
T1740 000:835 JLINK_IsHalted()  returns FALSE (0000ms, 0407ms total)
T1740 000:836 JLINK_IsHalted()  returns FALSE (0000ms, 0407ms total)
T1740 000:837 JLINK_IsHalted()  returns FALSE (0000ms, 0407ms total)
T1740 000:838 JLINK_IsHalted()  returns FALSE (0000ms, 0407ms total)
T1740 000:839 JLINK_IsHalted()  returns FALSE (0000ms, 0407ms total)
T1740 000:842 JLINK_IsHalted() -- CPU_ReadMem(2 bytes @ 0x20000000)  returns TRUE (0005ms, 0412ms total)
T1740 000:847 JLINK_ReadReg(R15 (PC))  returns 0x20000000 (0000ms, 0407ms total)
T1740 000:847 JLINK_ClrBPEx(BPHandle = 0x00000009)  returns 0x00 (0000ms, 0407ms total)
T1740 000:847 JLINK_ReadReg(R0)  returns 0x00000000 (0000ms, 0407ms total)
T1740 000:847 JLINK_WriteMem(0x20000164, 0x0400 Bytes, ...) - Data: 06 D1 03 26 06 FA 05 F4 A1 43 41 F0 70 61 06 E0 ... -- CPU_WriteMem(1024 bytes @ 0x20000164)  returns 0x400 (0014ms, 0421ms total)
T1740 000:861 JLINK_WriteReg(R0, 0x08001400)  returns 0x00 (0000ms, 0421ms total)
T1740 000:861 JLINK_WriteReg(R1, 0x00000400)  returns 0x00 (0000ms, 0421ms total)
T1740 000:861 JLINK_WriteReg(R2, 0x20000164)  returns 0x00 (0000ms, 0421ms total)
T1740 000:861 JLINK_WriteReg(R3, 0x00000000)  returns 0x00 (0000ms, 0421ms total)
T1740 000:861 JLINK_WriteReg(R4, 0x00000000)  returns 0x00 (0000ms, 0421ms total)
T1740 000:861 JLINK_WriteReg(R5, 0x00000000)  returns 0x00 (0000ms, 0421ms total)
T1740 000:861 JLINK_WriteReg(R6, 0x00000000)  returns 0x00 (0000ms, 0421ms total)
T1740 000:861 JLINK_WriteReg(R7, 0x00000000)  returns 0x00 (0000ms, 0421ms total)
T1740 000:861 JLINK_WriteReg(R8, 0x00000000)  returns 0x00 (0000ms, 0421ms total)
T1740 000:861 JLINK_WriteReg(R9, 0x20000160)  returns 0x00 (0000ms, 0421ms total)
T1740 000:861 JLINK_WriteReg(R10, 0x00000000)  returns 0x00 (0000ms, 0421ms total)
T1740 000:861 JLINK_WriteReg(R11, 0x00000000)  returns 0x00 (0000ms, 0421ms total)
T1740 000:861 JLINK_WriteReg(R12, 0x00000000)  returns 0x00 (0000ms, 0421ms total)
T1740 000:861 JLINK_WriteReg(R13 (SP), 0x20001000)  returns 0x00 (0000ms, 0421ms total)
T1740 000:861 JLINK_WriteReg(R14, 0x20000001)  returns 0x00 (0000ms, 0421ms total)
T1740 000:861 JLINK_WriteReg(R15 (PC), 0x200000F4)  returns 0x00 (0000ms, 0421ms total)
T1740 000:861 JLINK_WriteReg(XPSR, 0x01000000)  returns 0x00 (0000ms, 0421ms total)
T1740 000:861 JLINK_WriteReg(MSP, 0x20001000)  returns 0x00 (0000ms, 0421ms total)
T1740 000:861 JLINK_WriteReg(PSP, 0x20001000)  returns 0x00 (0000ms, 0421ms total)
T1740 000:861 JLINK_WriteReg(CFBP, 0x00000000)  returns 0x00 (0000ms, 0421ms total)
T1740 000:861 JLINK_SetBPEx(Addr = 0x20000000, Type = 0xFFFFFFF2)  returns 0x0000000A (0000ms, 0421ms total)
T1740 000:861 JLINK_Go() -- CPU_ReadMem(4 bytes @ 0xE0001000) (0006ms, 0427ms total)
T1740 000:867 JLINK_IsHalted()  returns FALSE (0001ms, 0428ms total)
T1740 000:870 JLINK_IsHalted()  returns FALSE (0001ms, 0428ms total)
T1740 000:872 JLINK_IsHalted()  returns FALSE (0001ms, 0428ms total)
T1740 000:874 JLINK_IsHalted()  returns FALSE (0002ms, 0429ms total)
T1740 000:877 JLINK_IsHalted()  returns FALSE (0001ms, 0428ms total)
T1740 000:879 JLINK_IsHalted()  returns FALSE (0000ms, 0427ms total)
T1740 000:880 JLINK_IsHalted()  returns FALSE (0000ms, 0427ms total)
T1740 000:881 JLINK_IsHalted()  returns FALSE (0001ms, 0428ms total)
T1740 000:885 JLINK_IsHalted()  returns FALSE (0001ms, 0428ms total)
T1740 000:887 JLINK_IsHalted()  returns FALSE (0002ms, 0429ms total)
T1740 000:890 JLINK_IsHalted()  returns FALSE (0001ms, 0428ms total)
T1740 000:892 JLINK_IsHalted()  returns FALSE (0001ms, 0428ms total)
T1740 000:894 JLINK_IsHalted()  returns FALSE (0001ms, 0428ms total)
T1740 000:896 JLINK_IsHalted()  returns FALSE (0000ms, 0427ms total)
T1740 000:897 JLINK_IsHalted()  returns FALSE (0000ms, 0427ms total)
T1740 000:901 JLINK_IsHalted() -- CPU_ReadMem(2 bytes @ 0x20000000)  returns TRUE (0005ms, 0432ms total)
T1740 000:906 JLINK_ReadReg(R15 (PC))  returns 0x20000000 (0000ms, 0427ms total)
T1740 000:906 JLINK_ClrBPEx(BPHandle = 0x0000000A)  returns 0x00 (0000ms, 0427ms total)
T1740 000:906 JLINK_ReadReg(R0)  returns 0x00000000 (0000ms, 0427ms total)
T1740 000:907 JLINK_WriteMem(0x20000164, 0x0400 Bytes, ...) - Data: 70 47 0B 49 C8 71 70 47 09 48 40 6A 40 F0 80 70 ... -- CPU_WriteMem(1024 bytes @ 0x20000164)  returns 0x400 (0012ms, 0439ms total)
T1740 000:919 JLINK_WriteReg(R0, 0x08001800)  returns 0x00 (0000ms, 0439ms total)
T1740 000:919 JLINK_WriteReg(R1, 0x00000400)  returns 0x00 (0000ms, 0439ms total)
T1740 000:919 JLINK_WriteReg(R2, 0x20000164)  returns 0x00 (0000ms, 0439ms total)
T1740 000:919 JLINK_WriteReg(R3, 0x00000000)  returns 0x00 (0000ms, 0439ms total)
T1740 000:919 JLINK_WriteReg(R4, 0x00000000)  returns 0x00 (0000ms, 0439ms total)
T1740 000:919 JLINK_WriteReg(R5, 0x00000000)  returns 0x00 (0000ms, 0439ms total)
T1740 000:919 JLINK_WriteReg(R6, 0x00000000)  returns 0x00 (0000ms, 0439ms total)
T1740 000:919 JLINK_WriteReg(R7, 0x00000000)  returns 0x00 (0000ms, 0439ms total)
T1740 000:919 JLINK_WriteReg(R8, 0x00000000)  returns 0x00 (0000ms, 0439ms total)
T1740 000:919 JLINK_WriteReg(R9, 0x20000160)  returns 0x00 (0000ms, 0439ms total)
T1740 000:919 JLINK_WriteReg(R10, 0x00000000)  returns 0x00 (0000ms, 0439ms total)
T1740 000:919 JLINK_WriteReg(R11, 0x00000000)  returns 0x00 (0000ms, 0439ms total)
T1740 000:919 JLINK_WriteReg(R12, 0x00000000)  returns 0x00 (0000ms, 0439ms total)
T1740 000:919 JLINK_WriteReg(R13 (SP), 0x20001000)  returns 0x00 (0000ms, 0439ms total)
T1740 000:919 JLINK_WriteReg(R14, 0x20000001)  returns 0x00 (0000ms, 0439ms total)
T1740 000:919 JLINK_WriteReg(R15 (PC), 0x200000F4)  returns 0x00 (0000ms, 0439ms total)
T1740 000:919 JLINK_WriteReg(XPSR, 0x01000000)  returns 0x00 (0000ms, 0439ms total)
T1740 000:919 JLINK_WriteReg(MSP, 0x20001000)  returns 0x00 (0000ms, 0439ms total)
T1740 000:919 JLINK_WriteReg(PSP, 0x20001000)  returns 0x00 (0000ms, 0439ms total)
T1740 000:919 JLINK_WriteReg(CFBP, 0x00000000)  returns 0x00 (0000ms, 0439ms total)
T1740 000:919 JLINK_SetBPEx(Addr = 0x20000000, Type = 0xFFFFFFF2)  returns 0x0000000B (0000ms, 0439ms total)
T1740 000:919 JLINK_Go() -- CPU_ReadMem(4 bytes @ 0xE0001000) (0006ms, 0445ms total)
T1740 000:925 JLINK_IsHalted()  returns FALSE (0001ms, 0446ms total)
T1740 000:927 JLINK_IsHalted()  returns FALSE (0001ms, 0446ms total)
T1740 000:932 JLINK_IsHalted()  returns FALSE (0001ms, 0446ms total)
T1740 000:934 JLINK_IsHalted()  returns FALSE (0002ms, 0447ms total)
T1740 000:937 JLINK_IsHalted()  returns FALSE (0001ms, 0446ms total)
T1740 000:939 JLINK_IsHalted()  returns FALSE (0001ms, 0446ms total)
T1740 000:941 JLINK_IsHalted()  returns FALSE (0001ms, 0446ms total)
T1740 000:943 JLINK_IsHalted()  returns FALSE (0000ms, 0445ms total)
T1740 000:944 JLINK_IsHalted()  returns FALSE (0001ms, 0446ms total)
T1740 000:946 JLINK_IsHalted()  returns FALSE (0002ms, 0447ms total)
T1740 000:951 JLINK_IsHalted()  returns FALSE (0001ms, 0446ms total)
T1740 000:954 JLINK_IsHalted()  returns FALSE (0001ms, 0446ms total)
T1740 000:956 JLINK_IsHalted() -- CPU_ReadMem(2 bytes @ 0x20000000)  returns TRUE (0005ms, 0450ms total)
T1740 000:961 JLINK_ReadReg(R15 (PC))  returns 0x20000000 (0000ms, 0445ms total)
T1740 000:961 JLINK_ClrBPEx(BPHandle = 0x0000000B)  returns 0x00 (0000ms, 0445ms total)
T1740 000:961 JLINK_ReadReg(R0)  returns 0x00000000 (0000ms, 0445ms total)
T1740 000:961 JLINK_WriteMem(0x20000164, 0x0400 Bytes, ...) - Data: EC FD 00 21 20 20 FF F7 E8 FD 7C E0 DA 48 84 42 ... -- CPU_WriteMem(1024 bytes @ 0x20000164)  returns 0x400 (0014ms, 0459ms total)
T1740 000:976 JLINK_WriteReg(R0, 0x08001C00)  returns 0x00 (0000ms, 0459ms total)
T1740 000:976 JLINK_WriteReg(R1, 0x00000400)  returns 0x00 (0000ms, 0459ms total)
T1740 000:976 JLINK_WriteReg(R2, 0x20000164)  returns 0x00 (0000ms, 0459ms total)
T1740 000:976 JLINK_WriteReg(R3, 0x00000000)  returns 0x00 (0000ms, 0459ms total)
T1740 000:976 JLINK_WriteReg(R4, 0x00000000)  returns 0x00 (0000ms, 0459ms total)
T1740 000:976 JLINK_WriteReg(R5, 0x00000000)  returns 0x00 (0000ms, 0459ms total)
T1740 000:976 JLINK_WriteReg(R6, 0x00000000)  returns 0x00 (0000ms, 0459ms total)
T1740 000:976 JLINK_WriteReg(R7, 0x00000000)  returns 0x00 (0000ms, 0459ms total)
T1740 000:976 JLINK_WriteReg(R8, 0x00000000)  returns 0x00 (0000ms, 0459ms total)
T1740 000:976 JLINK_WriteReg(R9, 0x20000160)  returns 0x00 (0000ms, 0459ms total)
T1740 000:976 JLINK_WriteReg(R10, 0x00000000)  returns 0x00 (0000ms, 0459ms total)
T1740 000:976 JLINK_WriteReg(R11, 0x00000000)  returns 0x00 (0000ms, 0459ms total)
T1740 000:976 JLINK_WriteReg(R12, 0x00000000)  returns 0x00 (0000ms, 0459ms total)
T1740 000:976 JLINK_WriteReg(R13 (SP), 0x20001000)  returns 0x00 (0000ms, 0459ms total)
T1740 000:976 JLINK_WriteReg(R14, 0x20000001)  returns 0x00 (0000ms, 0459ms total)
T1740 000:976 JLINK_WriteReg(R15 (PC), 0x200000F4)  returns 0x00 (0000ms, 0459ms total)
T1740 000:976 JLINK_WriteReg(XPSR, 0x01000000)  returns 0x00 (0000ms, 0459ms total)
T1740 000:976 JLINK_WriteReg(MSP, 0x20001000)  returns 0x00 (0000ms, 0459ms total)
T1740 000:976 JLINK_WriteReg(PSP, 0x20001000)  returns 0x00 (0000ms, 0459ms total)
T1740 000:976 JLINK_WriteReg(CFBP, 0x00000000)  returns 0x00 (0000ms, 0459ms total)
T1740 000:976 JLINK_SetBPEx(Addr = 0x20000000, Type = 0xFFFFFFF2)  returns 0x0000000C (0000ms, 0459ms total)
T1740 000:976 JLINK_Go() -- CPU_ReadMem(4 bytes @ 0xE0001000) (0007ms, 0466ms total)
T1740 000:983 JLINK_IsHalted()  returns FALSE (0001ms, 0467ms total)
T1740 000:987 JLINK_IsHalted()  returns FALSE (0001ms, 0467ms total)
T1740 000:989 JLINK_IsHalted()  returns FALSE (0001ms, 0467ms total)
T1740 000:991 JLINK_IsHalted()  returns FALSE (0002ms, 0468ms total)
T1740 000:998 JLINK_IsHalted()  returns FALSE (0001ms, 0467ms total)
T1740 001:000 JLINK_IsHalted()  returns FALSE (0001ms, 0467ms total)
T1740 001:002 JLINK_IsHalted()  returns FALSE (0001ms, 0467ms total)
T1740 001:004 JLINK_IsHalted()  returns FALSE (0002ms, 0468ms total)
T1740 001:009 JLINK_IsHalted()  returns FALSE (0001ms, 0467ms total)
T1740 001:011 JLINK_IsHalted()  returns FALSE (0000ms, 0466ms total)
T1740 001:012 JLINK_IsHalted()  returns FALSE (0000ms, 0466ms total)
T1740 001:013 JLINK_IsHalted()  returns FALSE (0000ms, 0466ms total)
T1740 001:014 JLINK_IsHalted() -- CPU_ReadMem(2 bytes @ 0x20000000)  returns TRUE (0004ms, 0470ms total)
T1740 001:018 JLINK_ReadReg(R15 (PC))  returns 0x20000000 (0000ms, 0466ms total)
T1740 001:018 JLINK_ClrBPEx(BPHandle = 0x0000000C)  returns 0x00 (0000ms, 0466ms total)
T1740 001:018 JLINK_ReadReg(R0)  returns 0x00000000 (0001ms, 0467ms total)
T1740 001:019 JLINK_WriteMem(0x20000164, 0x0400 Bytes, ...) - Data: 1A 43 82 83 70 47 F0 B5 0C 46 15 46 00 22 00 21 ... -- CPU_WriteMem(1024 bytes @ 0x20000164)  returns 0x400 (0014ms, 0481ms total)
T1740 001:033 JLINK_WriteReg(R0, 0x08002000)  returns 0x00 (0000ms, 0481ms total)
T1740 001:033 JLINK_WriteReg(R1, 0x00000400)  returns 0x00 (0000ms, 0481ms total)
T1740 001:033 JLINK_WriteReg(R2, 0x20000164)  returns 0x00 (0000ms, 0481ms total)
T1740 001:033 JLINK_WriteReg(R3, 0x00000000)  returns 0x00 (0000ms, 0481ms total)
T1740 001:033 JLINK_WriteReg(R4, 0x00000000)  returns 0x00 (0000ms, 0481ms total)
T1740 001:033 JLINK_WriteReg(R5, 0x00000000)  returns 0x00 (0000ms, 0481ms total)
T1740 001:033 JLINK_WriteReg(R6, 0x00000000)  returns 0x00 (0000ms, 0481ms total)
T1740 001:033 JLINK_WriteReg(R7, 0x00000000)  returns 0x00 (0000ms, 0481ms total)
T1740 001:033 JLINK_WriteReg(R8, 0x00000000)  returns 0x00 (0000ms, 0481ms total)
T1740 001:033 JLINK_WriteReg(R9, 0x20000160)  returns 0x00 (0000ms, 0481ms total)
T1740 001:033 JLINK_WriteReg(R10, 0x00000000)  returns 0x00 (0000ms, 0481ms total)
T1740 001:033 JLINK_WriteReg(R11, 0x00000000)  returns 0x00 (0000ms, 0481ms total)
T1740 001:033 JLINK_WriteReg(R12, 0x00000000)  returns 0x00 (0000ms, 0481ms total)
T1740 001:033 JLINK_WriteReg(R13 (SP), 0x20001000)  returns 0x00 (0000ms, 0481ms total)
T1740 001:033 JLINK_WriteReg(R14, 0x20000001)  returns 0x00 (0000ms, 0481ms total)
T1740 001:033 JLINK_WriteReg(R15 (PC), 0x200000F4)  returns 0x00 (0000ms, 0481ms total)
T1740 001:033 JLINK_WriteReg(XPSR, 0x01000000)  returns 0x00 (0000ms, 0481ms total)
T1740 001:033 JLINK_WriteReg(MSP, 0x20001000)  returns 0x00 (0000ms, 0481ms total)
T1740 001:033 JLINK_WriteReg(PSP, 0x20001000)  returns 0x00 (0000ms, 0481ms total)
T1740 001:033 JLINK_WriteReg(CFBP, 0x00000000)  returns 0x00 (0000ms, 0481ms total)
T1740 001:033 JLINK_SetBPEx(Addr = 0x20000000, Type = 0xFFFFFFF2)  returns 0x0000000D (0000ms, 0481ms total)
T1740 001:033 JLINK_Go() -- CPU_ReadMem(4 bytes @ 0xE0001000) (0006ms, 0487ms total)
T1740 001:039 JLINK_IsHalted()  returns FALSE (0001ms, 0488ms total)
T1740 001:045 JLINK_IsHalted()  returns FALSE (0001ms, 0488ms total)
T1740 001:047 JLINK_IsHalted()  returns FALSE (0002ms, 0489ms total)
T1740 001:050 JLINK_IsHalted()  returns FALSE (0001ms, 0488ms total)
T1740 001:052 JLINK_IsHalted()  returns FALSE (0001ms, 0488ms total)
T1740 001:054 JLINK_IsHalted()  returns FALSE (0002ms, 0489ms total)
T1740 001:059 JLINK_IsHalted()  returns FALSE (0003ms, 0490ms total)
T1740 001:063 JLINK_IsHalted()  returns FALSE (0001ms, 0491ms total)
T1740 001:065 JLINK_IsHalted()  returns FALSE (0001ms, 0491ms total)
T1740 001:067 JLINK_IsHalted()  returns FALSE (0001ms, 0491ms total)
T1740 001:069 JLINK_IsHalted()  returns FALSE (0001ms, 0491ms total)
T1740 001:071 JLINK_IsHalted() -- CPU_ReadMem(2 bytes @ 0x20000000)  returns TRUE (0004ms, 0494ms total)
T1740 001:075 JLINK_ReadReg(R15 (PC))  returns 0x20000000 (0000ms, 0490ms total)
T1740 001:075 JLINK_ClrBPEx(BPHandle = 0x0000000D)  returns 0x00 (0000ms, 0490ms total)
T1740 001:075 JLINK_ReadReg(R0)  returns 0x00000000 (0000ms, 0490ms total)
T1740 001:075 JLINK_WriteMem(0x20000164, 0x0400 Bytes, ...) - Data: 83 89 8B 43 83 81 70 47 81 82 70 47 41 EA 02 03 ... -- CPU_WriteMem(1024 bytes @ 0x20000164)  returns 0x400 (0014ms, 0504ms total)
T1740 001:089 JLINK_WriteReg(R0, 0x08002400)  returns 0x00 (0000ms, 0504ms total)
T1740 001:089 JLINK_WriteReg(R1, 0x00000400)  returns 0x00 (0000ms, 0504ms total)
T1740 001:089 JLINK_WriteReg(R2, 0x20000164)  returns 0x00 (0000ms, 0504ms total)
T1740 001:089 JLINK_WriteReg(R3, 0x00000000)  returns 0x00 (0000ms, 0504ms total)
T1740 001:089 JLINK_WriteReg(R4, 0x00000000)  returns 0x00 (0000ms, 0504ms total)
T1740 001:089 JLINK_WriteReg(R5, 0x00000000)  returns 0x00 (0000ms, 0504ms total)
T1740 001:089 JLINK_WriteReg(R6, 0x00000000)  returns 0x00 (0000ms, 0504ms total)
T1740 001:089 JLINK_WriteReg(R7, 0x00000000)  returns 0x00 (0000ms, 0504ms total)
T1740 001:089 JLINK_WriteReg(R8, 0x00000000)  returns 0x00 (0000ms, 0504ms total)
T1740 001:089 JLINK_WriteReg(R9, 0x20000160)  returns 0x00 (0000ms, 0504ms total)
T1740 001:089 JLINK_WriteReg(R10, 0x00000000)  returns 0x00 (0000ms, 0504ms total)
T1740 001:089 JLINK_WriteReg(R11, 0x00000000)  returns 0x00 (0000ms, 0504ms total)
T1740 001:089 JLINK_WriteReg(R12, 0x00000000)  returns 0x00 (0000ms, 0504ms total)
T1740 001:089 JLINK_WriteReg(R13 (SP), 0x20001000)  returns 0x00 (0000ms, 0504ms total)
T1740 001:089 JLINK_WriteReg(R14, 0x20000001)  returns 0x00 (0000ms, 0504ms total)
T1740 001:089 JLINK_WriteReg(R15 (PC), 0x200000F4)  returns 0x00 (0000ms, 0504ms total)
T1740 001:089 JLINK_WriteReg(XPSR, 0x01000000)  returns 0x00 (0000ms, 0504ms total)
T1740 001:089 JLINK_WriteReg(MSP, 0x20001000)  returns 0x00 (0000ms, 0504ms total)
T1740 001:089 JLINK_WriteReg(PSP, 0x20001000)  returns 0x00 (0000ms, 0504ms total)
T1740 001:089 JLINK_WriteReg(CFBP, 0x00000000)  returns 0x00 (0000ms, 0504ms total)
T1740 001:089 JLINK_SetBPEx(Addr = 0x20000000, Type = 0xFFFFFFF2)  returns 0x0000000E (0000ms, 0504ms total)
T1740 001:089 JLINK_Go() -- CPU_ReadMem(4 bytes @ 0xE0001000) (0006ms, 0510ms total)
T1740 001:095 JLINK_IsHalted()  returns FALSE (0001ms, 0511ms total)
T1740 001:098 JLINK_IsHalted()  returns FALSE (0001ms, 0511ms total)
T1740 001:100 JLINK_IsHalted()  returns FALSE (0001ms, 0511ms total)
T1740 001:102 JLINK_IsHalted()  returns FALSE (0002ms, 0512ms total)
T1740 001:107 JLINK_IsHalted()  returns FALSE (0001ms, 0511ms total)
T1740 001:109 JLINK_IsHalted()  returns FALSE (0001ms, 0511ms total)
T1740 001:111 JLINK_IsHalted()  returns FALSE (0000ms, 0510ms total)
T1740 001:112 JLINK_IsHalted()  returns FALSE (0000ms, 0510ms total)
T1740 001:113 JLINK_IsHalted()  returns FALSE (0000ms, 0510ms total)
T1740 001:114 JLINK_IsHalted()  returns FALSE (0001ms, 0511ms total)
T1740 001:118 JLINK_IsHalted()  returns FALSE (0001ms, 0511ms total)
T1740 001:120 JLINK_IsHalted()  returns FALSE (0001ms, 0511ms total)
